Circuit: * C:\Users\bogdan\OneDrive\Desktop\Project_SwAIC_Hancis-Bogdan\Circuit Simulations\Etaj 3\Etaj_3_Hancis_Bogdan.asc

Direct Newton iteration failed to find .op point.  (Use ".option noopiter" to skip.)
Starting Gmin stepping
Gmin = 10
Gmin = 1.07374
Gmin = 0.115292
Gmin = 0.0123794
Gmin = 0.00132923
Gmin = 0.000142725
Gmin = 1.5325e-05
Gmin = 1.6455e-06
Gmin = 1.76685e-07
Gmin = 1.89714e-08
Gmin = 2.03704e-09
Gmin = 2.18725e-10
Gmin = 2.34854e-11
Gmin = 2.52173e-12
Gmin = 2.70769e-13
Gmin = 0
Gmin stepping succeeded in finding the operating point.

Semiconductor Device Operating Points:
                        --- Diodes ---
Name:    d:u1:10     d:u1:3      d:u1:1      d:u1:2      d:u1:5
Model:  u1:dpshdn   u1:dilim    u1:dprot    u1:dprot    u1:dprot
Id:      4.31e-06    1.43e-04   -6.25e-10   -6.25e-10   -1.25e-09
Vd:      3.00e+01    8.58e-02   -1.50e+01   -1.50e+01   -3.00e+01
Req:     1.00e-03    1.67e-03    4.17e-11    4.17e-11    4.17e-11
CAP:     0.00e+00    0.00e+00    0.00e+00    0.00e+00    0.00e+00

Name:    d:u1:6      d:u1:13     d:u1:14     d:u1:15     d:u1:16
Model:  u1:dprot    u1:dprot    u1:dprot    u1:dprot    u1:dprot
Id:     -6.25e-10   -6.25e-10   -6.25e-10    0.00e+00   -6.25e-10
Vd:     -1.50e+01   -1.50e+01   -1.50e+01    0.00e+00   -1.50e+01
Req:     4.17e-11    4.17e-11    4.17e-11    4.17e-11    4.17e-11
CAP:     0.00e+00    0.00e+00    0.00e+00    0.00e+00    0.00e+00

Name:    d:u1:7      d:u1:12     d:u1:8      d:u1:9      d:u1:11
Model:   u1:enb      u1:enb     u1:dbias1   u1:dbias1   u1:dbiasz
Id:      0.00e+00    7.01e-07    5.00e-06    5.00e-06    1.43e-18
Vd:      0.00e+00    1.50e+01    7.50e-01    7.50e-01    1.43e-09
Req:     1.00e-09    1.00e-05    2.22e-04    2.22e-04    1.00e-09
CAP:     0.00e+00    0.00e+00    0.00e+00    0.00e+00    0.00e+00

Name:    d:u2:3      d:u2:2      d:u2:1      d:u2:4      d:u3:3
Model:    u2:s        u2:s        u2:s        u2:s        u3:s
Id:     -1.50e-08   -1.50e-08   -1.50e-08   -1.50e-08   -1.50e-08
Vd:     -1.50e+01   -1.50e+01   -1.50e+01   -1.50e+01   -1.50e+01
Req:     1.00e-09    1.00e-09    1.00e-09    1.00e-09    1.00e-09
CAP:     0.00e+00    0.00e+00    0.00e+00    0.00e+00    0.00e+00

Name:    d:u3:2      d:u3:1      d:u3:4      d:u4:3      d:u4:2
Model:    u3:s        u3:s        u3:s        u4:s        u4:s
Id:     -1.50e-08   -1.50e-08   -1.50e-08   -1.50e-08   -1.50e-08
Vd:     -1.50e+01   -1.50e+01   -1.50e+01   -1.50e+01   -1.50e+01
Req:     1.00e-09    1.00e-09    1.00e-09    1.00e-09    1.00e-09
CAP:     0.00e+00    0.00e+00    0.00e+00    0.00e+00    0.00e+00

Name:    d:u4:1      d:u4:4      d:u5:3      d:u5:2      d:u5:1
Model:    u4:s        u4:s        u5:s        u5:s        u5:s
Id:     -1.50e-08   -1.50e-08   -1.50e-08   -1.50e-08   -1.50e-08
Vd:     -1.50e+01   -1.50e+01   -1.50e+01   -1.50e+01   -1.50e+01
Req:     1.00e-09    1.00e-09    1.00e-09    1.00e-09    1.00e-09
CAP:     0.00e+00    0.00e+00    0.00e+00    0.00e+00    0.00e+00

Name:    d:u5:4      d:u6:3      d:u6:2      d:u6:1      d:u6:4
Model:    u5:s        u6:s        u6:s        u6:s        u6:s
Id:     -1.50e-08   -1.50e-08   -1.50e-08   -1.50e-08   -1.50e-08
Vd:     -1.50e+01   -1.50e+01   -1.50e+01   -1.50e+01   -1.50e+01
Req:     1.00e-09    1.00e-09    1.00e-09    1.00e-09    1.00e-09
CAP:     0.00e+00    0.00e+00    0.00e+00    0.00e+00    0.00e+00

                        --- Bipolar Transistors ---
Name:     q:u1:1      q:u1:2
Model:    u1:npn1     u1:npn1
Ib:       1.43e-04    1.46e-04
Ic:       9.29e-03    9.44e-03
Vbe:      7.18e-01    7.19e-01
Vbc:     -1.43e+01   -1.43e+01
Vce:      1.50e+01    1.50e+01
BetaDC:   6.50e+01    6.47e+01
Gm:       2.79e-01    2.82e-01
Rpi:      1.81e+02    1.77e+02
Rx:       0.00e+00    0.00e+00
Ro:       1.23e+04    1.21e+04
Cbe:      1.64e-13    1.64e-13
Cbc:      3.72e-14    3.72e-14
Cjs:      0.00e+00    0.00e+00
BetaAC:   5.04e+01    5.01e+01
Cbx:      0.00e+00    0.00e+00
Ft:       2.21e+11    2.24e+11

                        --- VDMOSFET Transistors ---
Name:        m:u2:2      m:u2:1      m:u3:2      m:u3:1      m:u4:2
Model:        u2:p        u2:n        u3:p        u3:n        u4:p
Id:          5.26e-18   -5.26e-18    2.96e-08   -3.14e-08    3.65e-16
Vgs:         2.11e+01   -2.34e+01   -8.90e+00    6.60e+00    2.11e+01
Vds:         5.26e-06   -5.26e-06    7.42e-06   -7.42e-06    3.65e-04
Vth:        -1.00e-01    1.00e-01   -1.00e-01    1.00e-01   -1.00e-01
Gm:          0.00e+00    0.00e+00    3.36e-09    4.83e-09    0.00e+00
Gds:         0.00e+00    0.00e+00    4.84e-03    6.79e-03    0.00e+00
Cgs:         1.06e-14    7.07e-15    1.06e-14    7.07e-15    1.06e-14
Cgd:         0.00e+00    0.00e+00    0.00e+00    0.00e+00    0.00e+00
Cbody:       0.00e+00    0.00e+00    0.00e+00    0.00e+00    0.00e+00

Name:        m:u4:1      m:u5:2      m:u5:1      m:u6:2      m:u6:1
Model:        u4:n        u5:p        u5:n        u6:p        u6:n
Id:         -3.65e-16    8.78e-16   -8.78e-16    1.61e-15   -1.61e-15
Vgs:        -2.34e+01    2.11e+01   -2.34e+01    2.11e+01   -2.34e+01
Vds:        -3.65e-04    8.78e-04   -8.78e-04    1.61e-03   -1.61e-03
Vth:         1.00e-01   -1.00e-01    1.00e-01   -1.00e-01    1.00e-01
Gm:          0.00e+00    0.00e+00    0.00e+00    0.00e+00    0.00e+00
Gds:         0.00e+00    0.00e+00    0.00e+00    0.00e+00    0.00e+00
Cgs:         7.07e-15    1.06e-14    7.07e-15    1.06e-14    7.07e-15
Cgd:         0.00e+00    0.00e+00    0.00e+00    0.00e+00    0.00e+00
Cbody:       0.00e+00    0.00e+00    0.00e+00    0.00e+00    0.00e+00


Note: .fourier statements are only valid with a .tran command.
      No Fourier analysis performed.


Date: Mon Jan 22 16:13:02 2024
Total elapsed time: 0.158 seconds.

tnom = 27
temp = 27
method = trap
totiter = 442
traniter = 0
tranpoints = 0
accept = 0
rejected = 0
matrix size = 86
fillins = 61
solver = Normal
Avg thread counts: 4.2/0.0/7.3/1.8
Matrix Compiler1:     446 opcodes
Matrix Compiler2: 9.70 KB object code size  0.8/1.1/[0.5]

